Freq.	V(vo)
Step Information: Run=13  (Run: 13/100)
1.00000000000000e+003	(1.41566714598948e-001dB,-3.69725820173208e+000°)
1.00230523807790e+003	(1.41570106652774e-001dB,-3.70578191153177e+000°)
1.00461579027840e+003	(1.41573514348335e-001dB,-3.71432527501085e+000°)
1.00693166885180e+003	(1.41576937757769e-001dB,-3.72288833750675e+000°)
1.00925288607668e+003	(1.41580376953485e-001dB,-3.73147114446176e+000°)
1.01157945425990e+003	(1.41583832008106e-001dB,-3.74007374142309e+000°)
1.01391138573668e+003	(1.41587302994712e-001dB,-3.74869617404345e+000°)
1.01624869287070e+003	(1.41590789986743e-001dB,-3.75733848808059e+000°)
1.01859138805412e+003	(1.41594293057895e-001dB,-3.76600072939820e+000°)
1.02093948370768e+003	(1.41597812282226e-001dB,-3.77468294396584e+000°)
1.02329299228075e+003	(1.41601347734271e-001dB,-3.78338517785940e+000°)
1.02565192625141e+003	(1.41604899488569e-001dB,-3.79210747726103e+000°)
1.02801629812647e+003	(1.41608467620361e-001dB,-3.80084988845970e+000°)
1.03038612044162e+003	(1.41612052205109e-001dB,-3.80961245785124e+000°)
1.03276140576140e+003	(1.41615653318498e-001dB,-3.81839523193857e+000°)
1.03514216667934e+003	(1.41619271036691e-001dB,-3.82719825733251e+000°)
1.03752841581801e+003	(1.41622905436204e-001dB,-3.83602158075096e+000°)
1.03992016582906e+003	(1.41626556593931e-001dB,-3.84486524902001e+000°)
1.04231742939330e+003	(1.41630224586895e-001dB,-3.85372930907401e+000°)
1.04472021922080e+003	(1.41633909492742e-001dB,-3.86261380795567e+000°)
1.04712854805090e+003	(1.41637611389471e-001dB,-3.87151879281632e+000°)
1.04954242865232e+003	(1.41641330355145e-001dB,-3.88044431091635e+000°)
1.05196187382322e+003	(1.41645066468530e-001dB,-3.88939040962521e+000°)
1.05438689639126e+003	(1.41648819808588e-001dB,-3.89835713642196e+000°)
1.05681750921366e+003	(1.41652590454552e-001dB,-3.90734453889528e+000°)
1.05925372517729e+003	(1.41656378486266e-001dB,-3.91635266474359e+000°)
1.06169555719872e+003	(1.41660183983693e-001dB,-3.92538156177592e+000°)
1.06414301822431e+003	(1.41664007027444e-001dB,-3.93443127791149e+000°)
1.06659612123026e+003	(1.41667847698171e-001dB,-3.94350186118027e+000°)
1.06905487922266e+003	(1.41671706077030e-001dB,-3.95259335972331e+000°)
1.07151930523761e+003	(1.41675582245799e-001dB,-3.96170582179275e+000°)
1.07398941234124e+003	(1.41679476286172e-001dB,-3.97083929575238e+000°)
1.07646521362983e+003	(1.41683388280618e-001dB,-3.97999383007758e+000°)
1.07894672222983e+003	(1.41687318311644e-001dB,-3.98916947335587e+000°)
1.08143395129794e+003	(1.41691266462508e-001dB,-3.99836627428702e+000°)
1.08392691402120e+003	(1.41695232816515e-001dB,-4.00758428168330e+000°)
1.08642562361706e+003	(1.41699217457724e-001dB,-4.01682354446962e+000°)
1.08893009333343e+003	(1.41703220470058e-001dB,-4.02608411168428e+000°)
1.09144033644875e+003	(1.41707241938295e-001dB,-4.03536603247860e+000°)
1.09395636627209e+003	(1.41711281947347e-001dB,-4.04466935611777e+000°)
1.09647819614318e+003	(1.41715340582644e-001dB,-4.05399413198049e+000°)
1.09900583943252e+003	(1.41719417930008e-001dB,-4.06334040955973e+000°)
1.10153930954141e+003	(1.41723514075558e-001dB,-4.07270823846303e+000°)
1.10407861990207e+003	(1.41727629105751e-001dB,-4.08209766841213e+000°)
1.10662378397766e+003	(1.41731763107756e-001dB,-4.09150874924406e+000°)
1.10917481526240e+003	(1.41735916168801e-001dB,-4.10094153091080e+000°)
1.11173172728159e+003	(1.41740088376646e-001dB,-4.11039606347992e+000°)
1.11429453359173e+003	(1.41744279819451e-001dB,-4.11987239713455e+000°)
1.11686324778056e+003	(1.41748490585922e-001dB,-4.12937058217391e+000°)
1.11943788346715e+003	(1.41752720764957e-001dB,-4.13889066901349e+000°)
1.12201845430196e+003	(1.41756970445906e-001dB,-4.14843270818507e+000°)
1.12460497396692e+003	(1.41761239718556e-001dB,-4.15799675033753e+000°)
1.12719745617551e+003	(1.41765528673121e-001dB,-4.16758284623661e+000°)
1.12979591467279e+003	(1.41769837400294e-001dB,-4.17719104676549e+000°)
1.13240036323555e+003	(1.41774165991178e-001dB,-4.18682140292476e+000°)
1.13501081567231e+003	(1.41778514536975e-001dB,-4.19647396583303e+000°)
1.13762728582343e+003	(1.41782883129801e-001dB,-4.20614878672716e+000°)
1.14024978756117e+003	(1.41787271861932e-001dB,-4.21584591696230e+000°)
1.14287833478977e+003	(1.41791680825975e-001dB,-4.22556540801214e+000°)
1.14551294144553e+003	(1.41796110115104e-001dB,-4.23530731146968e+000°)
1.14815362149688e+003	(1.41800559823040e-001dB,-4.24507167904692e+000°)
1.15080038894443e+003	(1.41805030043687e-001dB,-4.25485856257554e+000°)
1.15345325782109e+003	(1.41809520871476e-001dB,-4.26466801400703e+000°)
1.15611224219210e+003	(1.41814032401302e-001dB,-4.27450008541273e+000°)
1.15877735615512e+003	(1.41818564728387e-001dB,-4.28435482898459e+000°)
1.16144861384034e+003	(1.41823117948599e-001dB,-4.29423229703516e+000°)
1.16412602941049e+003	(1.41827692158117e-001dB,-4.30413254199793e+000°)
1.16680961706096e+003	(1.41832287453538e-001dB,-4.31405561642724e+000°)
1.16949939101987e+003	(1.41836903931861e-001dB,-4.32400157299960e+000°)
1.17219536554813e+003	(1.41841541690823e-001dB,-4.33397046451269e+000°)
1.17489755493953e+003	(1.41846200828144e-001dB,-4.34396234388656e+000°)
1.17760597352080e+003	(1.41850881442371e-001dB,-4.35397726416331e+000°)
1.18032063565173e+003	(1.41855583632376e-001dB,-4.36401527850803e+000°)
1.18304155572516e+003	(1.41860307497379e-001dB,-4.37407644020846e+000°)
1.18576874816716e+003	(1.41865053137282e-001dB,-4.38416080267557e+000°)
1.18850222743701e+003	(1.41869820652187e-001dB,-4.39426841944392e+000°)
1.19124200802737e+003	(1.41874610142900e-001dB,-4.40439934417161e+000°)
1.19398810446427e+003	(1.41879421710575e-001dB,-4.41455363064103e+000°)
1.19674053130724e+003	(1.41884255456770e-001dB,-4.42473133275878e+000°)
1.19949930314937e+003	(1.41889111483655e-001dB,-4.43493250455612e+000°)
1.20226443461741e+003	(1.41893989893665e-001dB,-4.44515720018918e+000°)
1.20503594037179e+003	(1.41898890789913e-001dB,-4.45540547393942e+000°)
1.20781383510678e+003	(1.41903814275875e-001dB,-4.46567738021365e+000°)
1.21059813355048e+003	(1.41908760455579e-001dB,-4.47597297354463e+000°)
1.21338885046497e+003	(1.41913729433482e-001dB,-4.48629230859096e+000°)
1.21618600064636e+003	(1.41918721314364e-001dB,-4.49663544013804e+000°)
1.21898959892486e+003	(1.41923736203812e-001dB,-4.50700242309747e+000°)
1.22179966016487e+003	(1.41928774207629e-001dB,-4.51739331250811e+000°)
1.22461619926504e+003	(1.41933835432250e-001dB,-4.52780816353597e+000°)
1.22743923115840e+003	(1.41938919984459e-001dB,-4.53824703147469e+000°)
1.23026877081238e+003	(1.41944027971827e-001dB,-4.54870997174566e+000°)
1.23310483322890e+003	(1.41949159501988e-001dB,-4.55919703989851e+000°)
1.23594743344450e+003	(1.41954314683386e-001dB,-4.56970829161136e+000°)
1.23879658653036e+003	(1.41959493624816e-001dB,-4.58024378269088e+000°)
1.24165230759241e+003	(1.41964696435649e-001dB,-4.59080356907305e+000°)
1.24451461177138e+003	(1.41969923225811e-001dB,-4.60138770682296e+000°)
1.24738351424294e+003	(1.41975174105570e-001dB,-4.61199625213558e+000°)
1.25025903021771e+003	(1.41980449185806e-001dB,-4.62262926133564e+000°)
1.25314117494141e+003	(1.41985748577872e-001dB,-4.63328679087826e+000°)
1.25602996369487e+003	(1.41991072393640e-001dB,-4.64396889734896e+000°)
1.25892541179416e+003	(1.41996420745484e-001dB,-4.65467563746438e+000°)
1.26182753459066e+003	(1.42001793746480e-001dB,-4.66540706807190e+000°)
1.26473634747115e+003	(1.42007191509835e-001dB,-4.67616324615084e+000°)
1.26765186585784e+003	(1.42012614149576e-001dB,-4.68694422881196e+000°)
1.27057410520854e+003	(1.42018061780206e-001dB,-4.69775007329830e+000°)
1.27350308101666e+003	(1.42023534516618e-001dB,-4.70858083698531e+000°)
1.27643880881134e+003	(1.42029032474479e-001dB,-4.71943657738079e+000°)
1.27938130415752e+003	(1.42034555769684e-001dB,-4.73031735212615e+000°)
1.28233058265601e+003	(1.42040104519071e-001dB,-4.74122321899542e+000°)
1.28528665994361e+003	(1.42045678839378e-001dB,-4.75215423589696e+000°)
1.28824955169313e+003	(1.42051278848529e-001dB,-4.76311046087256e+000°)
1.29121927361353e+003	(1.42056904664661e-001dB,-4.77409195209836e+000°)
1.29419584144998e+003	(1.42062556406466e-001dB,-4.78509876788506e+000°)
1.29717927098395e+003	(1.42068234193341e-001dB,-4.79613096667856e+000°)
1.30016957803328e+003	(1.42073938144978e-001dB,-4.80718860705955e+000°)
1.30316677845229e+003	(1.42079668381802e-001dB,-4.81827174774436e+000°)
1.30617088813183e+003	(1.42085425024717e-001dB,-4.82938044758520e+000°)
1.30918192299940e+003	(1.42091208195341e-001dB,-4.84051476557037e+000°)
1.31219989901920e+003	(1.42097018015513e-001dB,-4.85167476082457e+000°)
1.31522483219223e+003	(1.42102854607966e-001dB,-4.86286049260940e+000°)
1.31825673855640e+003	(1.42108718095805e-001dB,-4.87407202032333e+000°)
1.32129563418657e+003	(1.42114608602801e-001dB,-4.88530940350258e+000°)
1.32434153519466e+003	(1.42120526253273e-001dB,-4.89657270182082e+000°)
1.32739445772973e+003	(1.42126471171986e-001dB,-4.90786197508986e+000°)
1.33045441797808e+003	(1.42132443484452e-001dB,-4.91917728325990e+000°)
1.33352143216332e+003	(1.42138443316695e-001dB,-4.93051868641976e+000°)
1.33659551654643e+003	(1.42144470795140e-001dB,-4.94188624479739e+000°)
1.33967668742593e+003	(1.42150526047230e-001dB,-4.95328001875998e+000°)
1.34276496113786e+003	(1.42156609200559e-001dB,-4.96470006881442e+000°)
1.34586035405594e+003	(1.42162720383513e-001dB,-4.97614645560784e+000°)
1.34896288259165e+003	(1.42168859724912e-001dB,-4.98761923992715e+000°)
1.35207256319427e+003	(1.42175027354338e-001dB,-4.99911848270035e+000°)
1.35518941235103e+003	(1.42181223401903e-001dB,-5.01064424499627e+000°)
1.35831344658715e+003	(1.42187447998357e-001dB,-5.02219658802510e+000°)
1.36144468246594e+003	(1.42193701275059e-001dB,-5.03377557313849e+000°)
1.36458313658892e+003	(1.42199983363689e-001dB,-5.04538126183029e+000°)
1.36772882559584e+003	(1.42206294396966e-001dB,-5.05701371573641e+000°)
1.37088176616484e+003	(1.42212634507938e-001dB,-5.06867299663566e+000°)
1.37404197501251e+003	(1.42219003830419e-001dB,-5.08035916644940e+000°)
1.37720946889394e+003	(1.42225402498609e-001dB,-5.09207228724273e+000°)
1.38038426460288e+003	(1.42231830647532e-001dB,-5.10381242122410e+000°)
1.38356637897177e+003	(1.42238288412720e-001dB,-5.11557963074595e+000°)
1.38675582887188e+003	(1.42244775930540e-001dB,-5.12737397830524e+000°)
1.38995263121334e+003	(1.42251293337580e-001dB,-5.13919552654313e+000°)
1.39315680294529e+003	(1.42257840771471e-001dB,-5.15104433824610e+000°)
1.39636836105593e+003	(1.42264418370208e-001dB,-5.16292047634572e+000°)
1.39958732257261e+003	(1.42271026272455e-001dB,-5.17482400391952e+000°)
1.40281370456195e+003	(1.42277664617672e-001dB,-5.18675498419074e+000°)
1.40604752412990e+003	(1.42284333545756e-001dB,-5.19871348052882e+000°)
1.40928879842186e+003	(1.42291033197349e-001dB,-5.21069955645031e+000°)
1.41253754462274e+003	(1.42297763713756e-001dB,-5.22271327561850e+000°)
1.41579377995707e+003	(1.42304525236978e-001dB,-5.23475470184376e+000°)
1.41905752168908e+003	(1.42311317909343e-001dB,-5.24682389908490e+000°)
1.42232878712281e+003	(1.42318141874278e-001dB,-5.25892093144803e+000°)
1.42560759360218e+003	(1.42324997275553e-001dB,-5.27104586318791e+000°)
1.42889395851109e+003	(1.42331884257767e-001dB,-5.28319875870820e+000°)
1.43218789927353e+003	(1.42338802966014e-001dB,-5.29537968256137e+000°)
1.43548943335364e+003	(1.42345753546348e-001dB,-5.30758869944955e+000°)
1.43879857825583e+003	(1.42352736145061e-001dB,-5.31982587422449e+000°)
1.44211535152486e+003	(1.42359750909570e-001dB,-5.33209127188803e+000°)
1.44543977074592e+003	(1.42366797987613e-001dB,-5.34438495759271e+000°)
1.44877185354475e+003	(1.42373877527721e-001dB,-5.35670699664170e+000°)
1.45211161758773e+003	(1.42380989679323e-001dB,-5.36905745448947e+000°)
1.45545908058195e+003	(1.42388134592051e-001dB,-5.38143639674178e+000°)
1.45881426027534e+003	(1.42395312416720e-001dB,-5.39384388915659e+000°)
1.46217717445671e+003	(1.42402523304552e-001dB,-5.40627999764393e+000°)
1.46554784095590e+003	(1.42409767407545e-001dB,-5.41874478826644e+000°)
1.46892627764385e+003	(1.42417044878287e-001dB,-5.43123832723970e+000°)
1.47231250243271e+003	(1.42424355870264e-001dB,-5.44376068093282e+000°)
1.47570653327588e+003	(1.42431700537577e-001dB,-5.45631191586813e+000°)
1.47910838816819e+003	(1.42439079034907e-001dB,-5.46889209872246e+000°)
1.48251808514594e+003	(1.42446491517776e-001dB,-5.48150129632652e+000°)
1.48593564228699e+003	(1.42453938142496e-001dB,-5.49413957566630e+000°)
1.48936107771090e+003	(1.42461419065844e-001dB,-5.50680700388255e+000°)
1.49279440957898e+003	(1.42468934445529e-001dB,-5.51950364827170e+000°)
1.49623565609442e+003	(1.42476484439871e-001dB,-5.53222957628575e+000°)
1.49968483550236e+003	(1.42484069208089e-001dB,-5.54498485553322e+000°)
1.50314196609001e+003	(1.42491688909766e-001dB,-5.55776955377877e+000°)
1.50660706618673e+003	(1.42499343705583e-001dB,-5.57058373894452e+000°)
1.51008015416413e+003	(1.42507033756832e-001dB,-5.58342747910952e+000°)
1.51356124843619e+003	(1.42514759225480e-001dB,-5.59630084251044e+000°)
1.51705036745932e+003	(1.42522520274292e-001dB,-5.60920389754219e+000°)
1.52054752973248e+003	(1.42530317066826e-001dB,-5.62213671275811e+000°)
1.52405275379728e+003	(1.42538149767283e-001dB,-5.63509935687003e+000°)
1.52756605823806e+003	(1.42546018540623e-001dB,-5.64809189874924e+000°)
1.53108746168201e+003	(1.42553923552656e-001dB,-5.66111440742622e+000°)
1.53461698279928e+003	(1.42561864969908e-001dB,-5.67416695209165e+000°)
1.53815464030302e+003	(1.42569842959542e-001dB,-5.68724960209631e+000°)
1.54170045294954e+003	(1.42577857689881e-001dB,-5.70036242695154e+000°)
1.54525443953840e+003	(1.42585909329346e-001dB,-5.71350549632992e+000°)
1.54881661891247e+003	(1.42593998047862e-001dB,-5.72667888006515e+000°)
1.55238700995807e+003	(1.42602124015485e-001dB,-5.73988264815292e+000°)
1.55596563160506e+003	(1.42610287403629e-001dB,-5.75311687075094e+000°)
1.55955250282694e+003	(1.42618488384109e-001dB,-5.76638161817939e+000°)
1.56314764264094e+003	(1.42626727129495e-001dB,-5.77967696092157e+000°)
1.56675107010813e+003	(1.42635003813439e-001dB,-5.79300296962385e+000°)
1.57036280433354e+003	(1.42643318610171e-001dB,-5.80635971509632e+000°)
1.57398286446620e+003	(1.42651671694808e-001dB,-5.81974726831312e+000°)
1.57761126969933e+003	(1.42660063243221e-001dB,-5.83316570041294e+000°)
1.58124803927037e+003	(1.42668493432118e-001dB,-5.84661508269903e+000°)
1.58489319246110e+003	(1.42676962438892e-001dB,-5.86009548664008e+000°)
1.58854674859776e+003	(1.42685470441954e-001dB,-5.87360698387024e+000°)
1.59220872705115e+003	(1.42694017620417e-001dB,-5.88714964618985e+000°)
1.59587914723672e+003	(1.42702604154180e-001dB,-5.90072354556511e+000°)
1.59955802861465e+003	(1.42711230224048e-001dB,-5.91432875412958e+000°)
1.60324539069002e+003	(1.42719896011644e-001dB,-5.92796534418360e+000°)
1.60694125301286e+003	(1.42728601699284e-001dB,-5.94163338819509e+000°)
1.61064563517825e+003	(1.42737347470218e-001dB,-5.95533295879995e+000°)
1.61435855682647e+003	(1.42746133508748e-001dB,-5.96906412880234e+000°)
1.61808003764305e+003	(1.42754959999553e-001dB,-5.98282697117529e+000°)
1.62181009735891e+003	(1.42763827128471e-001dB,-5.99662155906079e+000°)
1.62554875575047e+003	(1.42772735082231e-001dB,-6.01044796577034e+000°)
1.62929603263970e+003	(1.42781684048225e-001dB,-6.02430626478550e+000°)
1.63305194789432e+003	(1.42790674214907e-001dB,-6.03819652975782e+000°)
1.63681652142779e+003	(1.42799705771254e-001dB,-6.05211883450990e+000°)
1.64058977319952e+003	(1.42808778907517e-001dB,-6.06607325303503e+000°)
1.64437172321491e+003	(1.42817893814462e-001dB,-6.08005985949851e+000°)
1.64816239152549e+003	(1.42827050684087e-001dB,-6.09407872823719e+000°)
1.65196179822900e+003	(1.42836249708953e-001dB,-6.10812993376019e+000°)
1.65576996346951e+003	(1.42845491082615e-001dB,-6.12221355074957e+000°)
1.65958690743754e+003	(1.42854774999472e-001dB,-6.13632965406054e+000°)
1.66341265037015e+003	(1.42864101654977e-001dB,-6.15047831872132e+000°)
1.66724721255104e+003	(1.42873471245268e-001dB,-6.16465961993457e+000°)
1.67109061431069e+003	(1.42882883967475e-001dB,-6.17887363307720e+000°)
1.67494287602642e+003	(1.42892340019590e-001dB,-6.19312043370070e+000°)
1.67880401812254e+003	(1.42901839600541e-001dB,-6.20740009753173e+000°)
1.68267406107045e+003	(1.42911382910240e-001dB,-6.22171270047259e+000°)
1.68655302538872e+003	(1.42920970149279e-001dB,-6.23605831860163e+000°)
1.69044093164324e+003	(1.42930601519382e-001dB,-6.25043702817348e+000°)
1.69433780044731e+003	(1.42940277223263e-001dB,-6.26484890561946e+000°)
1.69824365246172e+003	(1.42949997464252e-001dB,-6.27929402754828e+000°)
1.70215850839493e+003	(1.42959762446735e-001dB,-6.29377247074613e+000°)
1.70608238900310e+003	(1.42969572376230e-001dB,-6.30828431217741e+000°)
1.71001531509027e+003	(1.42979427458925e-001dB,-6.32282962898499e+000°)
1.71395730750840e+003	(1.42989327902250e-001dB,-6.33740849849033e+000°)
1.71790838715757e+003	(1.42999273914211e-001dB,-6.35202099819448e+000°)
1.72186857498598e+003	(1.43009265703934e-001dB,-6.36666720577808e+000°)
1.72583789199018e+003	(1.43019303481676e-001dB,-6.38134719910196e+000°)
1.72981635921508e+003	(1.43029387458350e-001dB,-6.39606105620764e+000°)
1.73380399775412e+003	(1.43039517845885e-001dB,-6.41080885531742e+000°)
1.73780082874935e+003	(1.43049694857578e-001dB,-6.42559067483495e+000°)
1.74180687339159e+003	(1.43059918707151e-001dB,-6.44040659334600e+000°)
1.74582215292048e+003	(1.43070189609466e-001dB,-6.45525668961838e+000°)
1.74984668862463e+003	(1.43080507780659e-001dB,-6.47014104260282e+000°)
1.75388050184174e+003	(1.43090873437503e-001dB,-6.48505973143286e+000°)
1.75792361395867e+003	(1.43101286797866e-001dB,-6.50001283542572e+000°)
1.76197604641161e+003	(1.43111748080671e-001dB,-6.51500043408293e+000°)
1.76603782068614e+003	(1.43122257505784e-001dB,-6.53002260708992e+000°)
1.77010895831740e+003	(1.43132815294030e-001dB,-6.54507943431712e+000°)
1.77418948089014e+003	(1.43143421667338e-001dB,-6.56017099582063e+000°)
1.77827941003890e+003	(1.43154076848702e-001dB,-6.57529737184164e+000°)
1.78237876744807e+003	(1.43164781061809e-001dB,-6.59045864280810e+000°)
1.78648757485203e+003	(1.43175534531801e-001dB,-6.60565488933390e+000°)
1.79060585403527e+003	(1.43186337484602e-001dB,-6.62088619222057e+000°)
1.79473362683250e+003	(1.43197190147111e-001dB,-6.63615263245692e+000°)
1.79887091512876e+003	(1.43208092747469e-001dB,-6.65145429121937e+000°)
1.80301774085954e+003	(1.43219045514606e-001dB,-6.66679124987301e+000°)
1.80717412601090e+003	(1.43230048678763e-001dB,-6.68216358997170e+000°)
1.81134009261958e+003	(1.43241102471061e-001dB,-6.69757139325850e+000°)
1.81551566277311e+003	(1.43252207123683e-001dB,-6.71301474166593e+000°)
1.81970085860996e+003	(1.43263362869911e-001dB,-6.72849371731701e+000°)
1.82389570231961e+003	(1.43274569944046e-001dB,-6.74400840252509e+000°)
1.82810021614272e+003	(1.43285828581593e-001dB,-6.75955887979466e+000°)
1.83231442237119e+003	(1.43297139018967e-001dB,-6.77514523182166e+000°)
1.83653834334832e+003	(1.43308501493594e-001dB,-6.79076754149368e+000°)
1.84077200146893e+003	(1.43319916244270e-001dB,-6.80642589189124e+000°)
1.84501541917945e+003	(1.43331383510644e-001dB,-6.82212036628718e+000°)
1.84926861897805e+003	(1.43342903533637e-001dB,-6.83785104814774e+000°)
1.85353162341478e+003	(1.43354476554985e-001dB,-6.85361802113323e+000°)
1.85780445509167e+003	(1.43366102817813e-001dB,-6.86942136909754e+000°)
1.86208713666284e+003	(1.43377782566201e-001dB,-6.88526117608974e+000°)
1.86637969083464e+003	(1.43389516045413e-001dB,-6.90113752635382e+000°)
1.87068214036577e+003	(1.43401303501726e-001dB,-6.91705050432914e+000°)
1.87499450806739e+003	(1.43413145182623e-001dB,-6.93300019465133e+000°)
1.87931681680324e+003	(1.43425041336769e-001dB,-6.94898668215250e+000°)
1.88364908948977e+003	(1.43436992213891e-001dB,-6.96501005186164e+000°)
1.88799134909627e+003	(1.43448998064750e-001dB,-6.98107038900512e+000°)
